/* verilator lint_off UNUSEDSIGNAL */
/* verilator lint_off UNDRIVEN */

interface npu_axi4_if #(
    parameter int unsigned ADDR_W = 64,
    parameter int unsigned DATA_W = 128,
    parameter int unsigned ID_W = 1
) (
    input logic aclk_i,
    input logic aresetn_i
);

    localparam int unsigned STRB_W = DATA_W / 8;

    logic [ID_W-1:0]   awid;
    logic [ADDR_W-1:0] awaddr;
    logic [7:0]        awlen;
    logic [2:0]        awsize;
    logic [1:0]        awburst;
    logic              awvalid;
    logic              awready;
    logic [DATA_W-1:0] wdata;
    logic [STRB_W-1:0] wstrb;
    logic              wlast;
    logic              wvalid;
    logic              wready;
    logic [ID_W-1:0]   bid;
    logic [1:0]        bresp;
    logic              bvalid;
    logic              bready;

    logic [ID_W-1:0]   arid;
    logic [ADDR_W-1:0] araddr;
    logic [7:0]        arlen;
    logic [2:0]        arsize;
    logic [1:0]        arburst;
    logic              arvalid;
    logic              arready;
    logic [ID_W-1:0]   rid;
    logic [DATA_W-1:0] rdata;
    logic [1:0]        rresp;
    logic              rlast;
    logic              rvalid;
    logic              rready;

    function automatic logic burst_within_4k(
        input logic [ADDR_W-1:0] address,
        input logic [7:0] length,
        input logic [2:0] size
    );
        logic [20:0] transfer_bytes;
        logic [20:0] page_end;
        begin
            transfer_bytes = (21'(length) + 21'd1) << size;
            page_end = {9'd0, address[11:0]} + transfer_bytes;
            burst_within_4k = page_end <= 21'd4096;
        end
    endfunction

    modport master (
        input  aclk_i,
        input  aresetn_i,
        output awid,
        output awaddr,
        output awlen,
        output awsize,
        output awburst,
        output awvalid,
        input  awready,
        output wdata,
        output wstrb,
        output wlast,
        output wvalid,
        input  wready,
        input  bid,
        input  bresp,
        input  bvalid,
        output bready,
        output arid,
        output araddr,
        output arlen,
        output arsize,
        output arburst,
        output arvalid,
        input  arready,
        input  rid,
        input  rdata,
        input  rresp,
        input  rlast,
        input  rvalid,
        output rready
    );

    modport read_master (
        input  aclk_i,
        input  aresetn_i,
        output arid,
        output araddr,
        output arlen,
        output arsize,
        output arburst,
        output arvalid,
        input  arready,
        input  rid,
        input  rdata,
        input  rresp,
        input  rlast,
        input  rvalid,
        output rready
    );

    modport write_master (
        input  aclk_i,
        input  aresetn_i,
        output awid,
        output awaddr,
        output awlen,
        output awsize,
        output awburst,
        output awvalid,
        input  awready,
        output wdata,
        output wstrb,
        output wlast,
        output wvalid,
        input  wready,
        input  bid,
        input  bresp,
        input  bvalid,
        output bready
    );

    modport slave (
        input  aclk_i,
        input  aresetn_i,
        input  awid,
        input  awaddr,
        input  awlen,
        input  awsize,
        input  awburst,
        input  awvalid,
        output awready,
        input  wdata,
        input  wstrb,
        input  wlast,
        input  wvalid,
        output wready,
        output bid,
        output bresp,
        output bvalid,
        input  bready,
        input  arid,
        input  araddr,
        input  arlen,
        input  arsize,
        input  arburst,
        input  arvalid,
        output arready,
        output rid,
        output rdata,
        output rresp,
        output rlast,
        output rvalid,
        input  rready
    );

    modport read_slave (
        input  aclk_i,
        input  aresetn_i,
        input  arid,
        input  araddr,
        input  arlen,
        input  arsize,
        input  arburst,
        input  arvalid,
        output arready,
        output rid,
        output rdata,
        output rresp,
        output rlast,
        output rvalid,
        input  rready
    );

    modport write_slave (
        input  aclk_i,
        input  aresetn_i,
        input  awid,
        input  awaddr,
        input  awlen,
        input  awsize,
        input  awburst,
        input  awvalid,
        output awready,
        input  wdata,
        input  wstrb,
        input  wlast,
        input  wvalid,
        output wready,
        output bid,
        output bresp,
        output bvalid,
        input  bready
    );

    axi_aw_stable_until_ready: assert property (
        @(posedge aclk_i) disable iff (!aresetn_i)
            awvalid && !awready |=>
                awvalid && $stable(awid) && $stable(awaddr) &&
                $stable(awlen) && $stable(awsize) && $stable(awburst)
    );
    axi_w_stable_until_ready: assert property (
        @(posedge aclk_i) disable iff (!aresetn_i)
            wvalid && !wready |=>
                wvalid && $stable(wdata) && $stable(wstrb) && $stable(wlast)
    );
    axi_b_stable_until_ready: assert property (
        @(posedge aclk_i) disable iff (!aresetn_i)
            bvalid && !bready |=> bvalid && $stable(bid) && $stable(bresp)
    );
    axi_ar_stable_until_ready: assert property (
        @(posedge aclk_i) disable iff (!aresetn_i)
            arvalid && !arready |=>
                arvalid && $stable(arid) && $stable(araddr) &&
                $stable(arlen) && $stable(arsize) && $stable(arburst)
    );
    axi_r_stable_until_ready: assert property (
        @(posedge aclk_i) disable iff (!aresetn_i)
            rvalid && !rready |=>
                rvalid && $stable(rid) && $stable(rdata) &&
                $stable(rresp) && $stable(rlast)
    );
    axi_aw_burst_within_4k: assert property (
        @(posedge aclk_i) disable iff (!aresetn_i)
            awvalid |-> burst_within_4k(awaddr, awlen, awsize)
    );
    axi_ar_burst_within_4k: assert property (
        @(posedge aclk_i) disable iff (!aresetn_i)
            arvalid |-> burst_within_4k(araddr, arlen, arsize)
    );

    axi_read_burst_seen: cover property (
        @(posedge aclk_i) disable iff (!aresetn_i)
            arvalid && arready
    );
    axi_write_burst_seen: cover property (
        @(posedge aclk_i) disable iff (!aresetn_i)
            awvalid && awready
    );

endinterface
/* verilator lint_on UNDRIVEN */
/* verilator lint_on UNUSEDSIGNAL */
